
T458C 000:001 SEGGER J-Link V4.98b Log File (0001ms, 0002ms total)
T458C 000:001 DLL Compiled: Apr 10 2015 20:15:52 (0001ms, 0002ms total)
T458C 000:001 Logging started @ 2021-01-25 22:30 (0002ms, 0003ms total)
T458C 000:003 JLINK_SetWarnOutHandler(...) (0000ms, 0003ms total)
T458C 000:003 JLINK_OpenEx(...)
Firmware: J-Link V9 compiled Dec 13 2019 11:14:50
Hardware: V9.70
S/N: 59706666
Feature(s): RDI, FlashBP, FlashDL, JFlash, GDB  returns O.K. (0288ms, 0291ms total)
T458C 000:291 JLINK_GetEmuCaps()  returns 0xB9FF7BBF (0000ms, 0291ms total)
T458C 000:291 JLINK_TIF_GetAvailable(...) (0001ms, 0292ms total)
T458C 000:292 JLINK_SetErrorOutHandler(...) (0000ms, 0292ms total)
T458C 000:292 JLINK_ExecCommand("ProjectFile = "D:\0reborn\2020ÅàÑµ\answer1\USER\JLinkSettings.ini"", ...)Device "UNSPECIFIED" selected.  returns 0x00 (0042ms, 0334ms total)
T458C 000:381 JLINK_ExecCommand("Device = STM32F405RGTx", ...)Device "UNSPECIFIED" selected.  returns 0x00 (0044ms, 0378ms total)
T458C 000:425 JLINK_ExecCommand("DisableConnectionTimeout", ...)  returns 0x01 (0000ms, 0379ms total)
T458C 000:426 JLINK_GetHardwareVersion()  returns 0x17AE8 (0000ms, 0379ms total)
T458C 000:426 JLINK_GetDLLVersion()  returns 49802 (0000ms, 0379ms total)
T458C 000:426 JLINK_GetFirmwareString(...) (0000ms, 0379ms total)
T458C 000:501 JLINK_GetDLLVersion()  returns 49802 (0000ms, 0379ms total)
T458C 000:501 JLINK_GetCompileDateTime() (0001ms, 0380ms total)
T458C 000:528 JLINK_GetFirmwareString(...) (0001ms, 0381ms total)
T458C 000:550 JLINK_GetHardwareVersion()  returns 0x17AE8 (0000ms, 0381ms total)
T458C 000:692 JLINK_TIF_Select(JLINKARM_TIF_SWD)  returns 0x00 (0002ms, 0383ms total)
T458C 000:695 JLINK_SetSpeed(5000) (0000ms, 0384ms total)
T458C 000:695 JLINK_GetId() >0x108 TIF>Found SWD-DP with ID 0x2BA01477 >0x0D TIF> >0x21 TIF> >0x0D TIF> >0x28 TIF> >0x0D TIF> >0x28 TIF> >0x0D TIF> >0x21 TIF> >0x0D TIF> >0x28 TIF> >0x0D TIF> >0x21 TIF> >0x0D TIF> >0x21 TIF> >0x0D TIF> >0x21 TIF> >0x0D TIF> >0x21 TIF> >0x0D TIF> >0x28 TIF> >0x0D TIF> >0x28 TIF> >0x0D TIF> >0x21 TIF> >0x0D TIF> >0x28 TIF> >0x0D TIF> >0x28 TIF> >0x0D TIF> >0x28 TIF> >0x0D TIF> >0x21 TIF> >0x0D TIF> >0x21 TIF> >0x0D TIF> >0x28 TIF> >0x0D TIF> >0x21 TIF> >0x0D TIF>
 >0x21 TIF>Found Cortex-M4 r0p1, Little endian. -- CPU_WriteMem(4 bytes @ 0xE0002000) -- CPU_ReadMem(4 bytes @ 0xE000EDF0) -- CPU_ReadMem(4 bytes @ 0xE0002000)FPUnit: 6 code (BP) slots and 2 literal slots -- CPU_ReadMem(4 bytes @ 0xE000EDFC) -- CPU_ReadMem(4 bytes @ 0xE0001000) -- CPU_WriteMem(4 bytes @ 0xE0001000) -- CPU_ReadMem(4 bytes @ 0xE000ED88) -- CPU_WriteMem(4 bytes @ 0xE000ED88) -- CPU_ReadMem(4 bytes @ 0xE000ED88) -- CPU_WriteMem(4 bytes @ 0xE000ED88)CoreSight components:ROMTbl 0 @ E00FF000
 -- CPU_ReadMem(16 bytes @ 0xE00FF000) -- CPU_ReadMem(16 bytes @ 0xE000EFF0) -- CPU_ReadMem(16 bytes @ 0xE000EFE0)ROMTbl 0 [0]: FFF0F000, CID: B105E00D, PID: 000BB00C SCS -- CPU_ReadMem(16 bytes @ 0xE0001FF0) -- CPU_ReadMem(16 bytes @ 0xE0001FE0)ROMTbl 0 [1]: FFF02000, CID: B105E00D, PID: 003BB002 DWT -- CPU_ReadMem(16 bytes @ 0xE0002FF0) -- CPU_ReadMem(16 bytes @ 0xE0002FE0)ROMTbl 0 [2]: FFF03000, CID: B105E00D, PID: 002BB003 FPB -- CPU_ReadMem(16 bytes @ 0xE0000FF0)
 -- CPU_ReadMem(16 bytes @ 0xE0000FE0)ROMTbl 0 [3]: FFF01000, CID: B105E00D, PID: 003BB001 ITM -- CPU_ReadMem(16 bytes @ 0xE00FF010) -- CPU_ReadMem(16 bytes @ 0xE0040FF0) -- CPU_ReadMem(16 bytes @ 0xE0040FE0)ROMTbl 0 [4]: FFF41000, CID: B105900D, PID: 000BB9A1 TPIU -- CPU_ReadMem(16 bytes @ 0xE0041FF0) -- CPU_ReadMem(16 bytes @ 0xE0041FE0)ROMTbl 0 [5]: FFF42000, CID: B105900D, PID: 000BB925 ETM >0x0D TIF> >0x21 TIF>  returns 0x2BA01477 (0283ms, 0667ms total)
T458C 000:978 JLINK_GetDLLVersion()  returns 49802 (0000ms, 0667ms total)
T458C 000:978 JLINK_CORE_GetFound()  returns 0xE0000FF (0000ms, 0667ms total)
T458C 000:978 JLINK_GetDebugInfo(0x100) -- Value=0xE00FF003  returns 0x00 (0000ms, 0667ms total)
T458C 001:002 JLINK_GetDebugInfo(0x100) -- Value=0xE00FF003  returns 0x00 (0000ms, 0667ms total)
T458C 001:002 JLINK_GetDebugInfo(0x101)  returns 0xFFFFFFFF (0001ms, 0668ms total)
T458C 001:003 JLINK_ReadMemEx(0xE0041FF0, 0x0010 Bytes, ..., AccessWidth = 33554436) -- CPU is running -- CPU_ReadMem(16 bytes @ 0xE0041FF0) - Data: 0D 00 00 00 90 00 00 00 05 00 00 00 B1 00 00 00  returns 0x10 (0001ms, 0669ms total)
T458C 001:004 JLINK_GetDebugInfo(0x102)  returns 0xFFFFFFFF (0000ms, 0669ms total)
T458C 001:005 JLINK_GetDebugInfo(0x103)  returns 0xFFFFFFFF (0000ms, 0669ms total)
T458C 001:005 JLINK_ReadMemEx(0xE0040FF0, 0x0010 Bytes, ..., AccessWidth = 33554436) -- CPU is running -- CPU_ReadMem(16 bytes @ 0xE0040FF0) - Data: 0D 00 00 00 90 00 00 00 05 00 00 00 B1 00 00 00  returns 0x10 (0001ms, 0670ms total)
T458C 001:006 JLINK_GetDebugInfo(0x104)  returns 0xFFFFFFFF (0000ms, 0670ms total)
T458C 001:006 JLINK_GetDebugInfo(0x105)  returns 0xFFFFFFFF (0000ms, 0670ms total)
T458C 001:006 JLINK_GetDebugInfo(0x106)  returns 0xFFFFFFFF (0000ms, 0670ms total)
T458C 001:006 JLINK_GetDebugInfo(0x107)  returns 0xFFFFFFFF (0001ms, 0671ms total)
T458C 001:007 JLINK_GetDebugInfo(0x10C)  returns 0xFFFFFFFF (0000ms, 0671ms total)
T458C 001:007 JLINK_ReadMemU32(0xE000EF40, 0x0001 Items, ...) -- CPU is running -- CPU_ReadMem(4 bytes @ 0xE000EF40) - Data: 21 00 11 10  returns 0x01 (0000ms, 0671ms total)
T458C 001:007 JLINK_ReadMemU32(0xE000EF44, 0x0001 Items, ...) -- CPU is running -- CPU_ReadMem(4 bytes @ 0xE000EF44) - Data: 11 00 00 11  returns 0x01 (0001ms, 0672ms total)
T458C 001:008 JLINK_ReadMemU32(0xE000ED00, 0x0001 Items, ...) -- CPU is running -- CPU_ReadMem(4 bytes @ 0xE000ED00) - Data: 41 C2 0F 41  returns 0x01 (0001ms, 0673ms total)
T458C 001:009 JLINK_GetDebugInfo(0x10F)  returns 0xFFFFFFFF (0000ms, 0673ms total)
T458C 001:009 JLINK_SetResetType(JLINKARM_RESET_TYPE_NORMAL)  returns JLINKARM_RESET_TYPE_NORMAL (0000ms, 0673ms total)
T458C 001:009 JLINK_Reset() -- CPU is running -- CPU_WriteMem(4 bytes @ 0xE000EDF0) -- CPU is running -- CPU_WriteMem(4 bytes @ 0xE000EDFC) >0x35 TIF> -- CPU is running -- CPU_WriteMem(4 bytes @ 0xE000ED0C) -- CPU is running -- CPU_ReadMem(4 bytes @ 0xE000EDF0) -- CPU is running -- CPU_ReadMem(4 bytes @ 0xE000EDF0) -- CPU is running -- CPU_WriteMem(4 bytes @ 0xE000EDF0) -- CPU is running -- CPU_WriteMem(4 bytes @ 0xE000EDFC) -- CPU is running -- CPU_ReadMem(4 bytes @ 0xE000EDF0)
 -- CPU_WriteMem(4 bytes @ 0xE0002000) -- CPU_ReadMem(4 bytes @ 0xE000EDFC) -- CPU_ReadMem(4 bytes @ 0xE0001000) (0019ms, 0692ms total)
T458C 001:028 JLINK_Halt()  returns 0x00 (0000ms, 0692ms total)
T458C 001:028 JLINK_ReadMemU32(0xE000EDF0, 0x0001 Items, ...) -- CPU_ReadMem(4 bytes @ 0xE000EDF0) - Data: 03 00 03 00  returns 0x01 (0001ms, 0693ms total)
T458C 001:029 JLINK_WriteU32(0xE000EDF0, 0xA05F0003) -- CPU_WriteMem(4 bytes @ 0xE000EDF0)  returns 0x00 (0001ms, 0694ms total)
T458C 001:030 JLINK_WriteU32(0xE000EDFC, 0x01000000) -- CPU_WriteMem(4 bytes @ 0xE000EDFC)  returns 0x00 (0000ms, 0694ms total)
T458C 001:121 JLINK_GetHWStatus(...)  returns 0x00 (0000ms, 0694ms total)
T458C 001:180 JLINK_GetNumBPUnits(Type = 0xFFFFFF00)  returns 0x06 (0000ms, 0694ms total)
T458C 001:180 JLINK_GetNumBPUnits(Type = 0xF0)  returns 0x2000 (0001ms, 0695ms total)
T458C 001:181 JLINK_GetNumWPUnits()  returns 0x04 (0000ms, 0695ms total)
T458C 001:227 JLINK_GetSpeed()  returns 0xFA0 (0000ms, 0695ms total)
T458C 001:265 JLINK_ReadMemU32(0xE000E004, 0x0001 Items, ...) -- CPU_ReadMem(4 bytes @ 0xE000E004) - Data: 02 00 00 00  returns 0x01 (0001ms, 0696ms total)
T458C 001:266 JLINK_ReadMemU32(0xE000E004, 0x0001 Items, ...) -- CPU_ReadMem(4 bytes @ 0xE000E004) - Data: 02 00 00 00  returns 0x01 (0000ms, 0696ms total)
T458C 001:267 JLINK_WriteMemEx(0xE0001000, 0x001C Bytes, ..., AccessWidth = 33554436) - Data: 01 00 00 00 00 00 00 00 00 00 00 00 00 00 00 00 ... -- CPU_WriteMem(28 bytes @ 0xE0001000)  returns 0x1C (0003ms, 0699ms total)
T458C 001:270 JLINK_Halt()  returns 0x00 (0000ms, 0699ms total)
T458C 001:270 JLINK_IsHalted()  returns TRUE (0000ms, 0699ms total)
T458C 001:281 JLINK_WriteMem(0x20000000, 0x0180 Bytes, ...) - Data: 00 BE 0A E0 0D 78 2D 06 68 40 08 24 40 00 00 D3 ... -- CPU_WriteMem(384 bytes @ 0x20000000)  returns 0x180 (0004ms, 0703ms total)
T458C 001:285 JLINK_WriteReg(R0, 0x08000000)  returns 0x00 (0000ms, 0703ms total)
T458C 001:285 JLINK_WriteReg(R1, 0x00B71B00)  returns 0x00 (0000ms, 0703ms total)
T458C 001:285 JLINK_WriteReg(R2, 0x00000001)  returns 0x00 (0000ms, 0703ms total)
T458C 001:285 JLINK_WriteReg(R3, 0x00000000)  returns 0x00 (0001ms, 0704ms total)
T458C 001:286 JLINK_WriteReg(R4, 0x00000000)  returns 0x00 (0000ms, 0704ms total)
T458C 001:286 JLINK_WriteReg(R5, 0x00000000)  returns 0x00 (0000ms, 0704ms total)
T458C 001:286 JLINK_WriteReg(R6, 0x00000000)  returns 0x00 (0000ms, 0704ms total)
T458C 001:286 JLINK_WriteReg(R7, 0x00000000)  returns 0x00 (0000ms, 0704ms total)
T458C 001:286 JLINK_WriteReg(R8, 0x00000000)  returns 0x00 (0000ms, 0704ms total)
T458C 001:286 JLINK_WriteReg(R9, 0x2000017C)  returns 0x00 (0000ms, 0704ms total)
T458C 001:286 JLINK_WriteReg(R10, 0x00000000)  returns 0x00 (0001ms, 0705ms total)
T458C 001:287 JLINK_WriteReg(R11, 0x00000000)  returns 0x00 (0000ms, 0705ms total)
T458C 001:287 JLINK_WriteReg(R12, 0x00000000)  returns 0x00 (0000ms, 0705ms total)
T458C 001:287 JLINK_WriteReg(R13 (SP), 0x20001000)  returns 0x00 (0000ms, 0705ms total)
T458C 001:287 JLINK_WriteReg(R14, 0x20000001)  returns 0x00 (0000ms, 0705ms total)
T458C 001:287 JLINK_WriteReg(R15 (PC), 0x20000054)  returns 0x00 (0001ms, 0706ms total)
T458C 001:288 JLINK_WriteReg(XPSR, 0x01000000)  returns 0x00 (0000ms, 0706ms total)
T458C 001:288 JLINK_WriteReg(MSP, 0x20001000)  returns 0x00 (0000ms, 0706ms total)
T458C 001:288 JLINK_WriteReg(PSP, 0x20001000)  returns 0x00 (0000ms, 0706ms total)
T458C 001:288 JLINK_WriteReg(CFBP, 0x00000000)  returns 0x00 (0000ms, 0706ms total)
T458C 001:288 JLINK_SetBPEx(Addr = 0x20000000, Type = 0xFFFFFFF2) -- CPU_ReadMem(4 bytes @ 0x20000000) -- CPU_WriteMem(4 bytes @ 0x20000000) -- CPU_ReadMem(4 bytes @ 0x20000000) -- CPU_WriteMem(4 bytes @ 0x20000000) -- CPU_ReadMem(2 bytes @ 0x20000000)  returns 0x00000001 (0003ms, 0709ms total)
T458C 001:291 JLINK_Go() -- CPU_WriteMem(2 bytes @ 0x20000000) -- CPU_ReadMem(4 bytes @ 0xE0001000) -- CPU_WriteMem(4 bytes @ 0xE0002008) -- CPU_WriteMem(4 bytes @ 0xE000200C) -- CPU_WriteMem(4 bytes @ 0xE0002010) -- CPU_WriteMem(4 bytes @ 0xE0002014) -- CPU_WriteMem(4 bytes @ 0xE0002018) -- CPU_WriteMem(4 bytes @ 0xE000201C) -- CPU_WriteMem(4 bytes @ 0xE0001004) (0004ms, 0713ms total)
T458C 001:295 JLINK_IsHalted() -- CPU_ReadMem(2 bytes @ 0x20000000)  returns TRUE (0003ms, 0716ms total)
T458C 001:298 JLINK_ReadReg(R15 (PC))  returns 0x20000000 (0000ms, 0713ms total)
T458C 001:298 JLINK_ClrBPEx(BPHandle = 0x00000001)  returns 0x00 (0001ms, 0714ms total)
T458C 001:299 JLINK_ReadReg(R0)  returns 0x00000000 (0000ms, 0714ms total)
T458C 001:302 JLINK_WriteReg(R0, 0x08000000)  returns 0x00 (0000ms, 0714ms total)
T458C 001:302 JLINK_WriteReg(R1, 0x00004000)  returns 0x00 (0000ms, 0714ms total)
T458C 001:302 JLINK_WriteReg(R2, 0x000000FF)  returns 0x00 (0000ms, 0714ms total)
T458C 001:302 JLINK_WriteReg(R3, 0x00000000)  returns 0x00 (0000ms, 0714ms total)
T458C 001:302 JLINK_WriteReg(R4, 0x00000000)  returns 0x00 (0001ms, 0715ms total)
T458C 001:303 JLINK_WriteReg(R5, 0x00000000)  returns 0x00 (0000ms, 0715ms total)
T458C 001:303 JLINK_WriteReg(R6, 0x00000000)  returns 0x00 (0000ms, 0715ms total)
T458C 001:303 JLINK_WriteReg(R7, 0x00000000)  returns 0x00 (0000ms, 0715ms total)
T458C 001:303 JLINK_WriteReg(R8, 0x00000000)  returns 0x00 (0000ms, 0715ms total)
T458C 001:303 JLINK_WriteReg(R9, 0x2000017C)  returns 0x00 (0000ms, 0715ms total)
T458C 001:303 JLINK_WriteReg(R10, 0x00000000)  returns 0x00 (0000ms, 0715ms total)
T458C 001:303 JLINK_WriteReg(R11, 0x00000000)  returns 0x00 (0001ms, 0716ms total)
T458C 001:304 JLINK_WriteReg(R12, 0x00000000)  returns 0x00 (0000ms, 0716ms total)
T458C 001:304 JLINK_WriteReg(R13 (SP), 0x20001000)  returns 0x00 (0000ms, 0716ms total)
T458C 001:304 JLINK_WriteReg(R14, 0x20000001)  returns 0x00 (0000ms, 0716ms total)
T458C 001:304 JLINK_WriteReg(R15 (PC), 0x20000020)  returns 0x00 (0000ms, 0716ms total)
T458C 001:304 JLINK_WriteReg(XPSR, 0x01000000)  returns 0x00 (0000ms, 0716ms total)
T458C 001:304 JLINK_WriteReg(MSP, 0x20001000)  returns 0x00 (0000ms, 0716ms total)
T458C 001:304 JLINK_WriteReg(PSP, 0x20001000)  returns 0x00 (0000ms, 0716ms total)
T458C 001:305 JLINK_WriteReg(CFBP, 0x00000000)  returns 0x00 (0000ms, 0717ms total)
T458C 001:305 JLINK_SetBPEx(Addr = 0x20000000, Type = 0xFFFFFFF2)  returns 0x00000002 (0000ms, 0717ms total)
T458C 001:305 JLINK_Go() -- CPU_ReadMem(4 bytes @ 0xE0001000) (0002ms, 0719ms total)
T458C 001:307 JLINK_IsHalted() -- CPU_ReadMem(2 bytes @ 0x20000000)  returns TRUE (0003ms, 0722ms total)
T458C 001:310 JLINK_ReadReg(R15 (PC))  returns 0x20000000 (0000ms, 0719ms total)
T458C 001:310 JLINK_ClrBPEx(BPHandle = 0x00000002)  returns 0x00 (0000ms, 0719ms total)
T458C 001:310 JLINK_ReadReg(R0)  returns 0x00000001 (0001ms, 0720ms total)
T458C 001:311 JLINK_WriteReg(R0, 0x08000000)  returns 0x00 (0000ms, 0720ms total)
T458C 001:311 JLINK_WriteReg(R1, 0x00004000)  returns 0x00 (0000ms, 0720ms total)
T458C 001:311 JLINK_WriteReg(R2, 0x000000FF)  returns 0x00 (0000ms, 0720ms total)
T458C 001:311 JLINK_WriteReg(R3, 0x00000000)  returns 0x00 (0000ms, 0720ms total)
T458C 001:311 JLINK_WriteReg(R4, 0x00000000)  returns 0x00 (0000ms, 0720ms total)
T458C 001:311 JLINK_WriteReg(R5, 0x00000000)  returns 0x00 (0001ms, 0721ms total)
T458C 001:312 JLINK_WriteReg(R6, 0x00000000)  returns 0x00 (0000ms, 0721ms total)
T458C 001:312 JLINK_WriteReg(R7, 0x00000000)  returns 0x00 (0000ms, 0721ms total)
T458C 001:312 JLINK_WriteReg(R8, 0x00000000)  returns 0x00 (0000ms, 0721ms total)
T458C 001:312 JLINK_WriteReg(R9, 0x2000017C)  returns 0x00 (0000ms, 0721ms total)
T458C 001:312 JLINK_WriteReg(R10, 0x00000000)  returns 0x00 (0000ms, 0721ms total)
T458C 001:312 JLINK_WriteReg(R11, 0x00000000)  returns 0x00 (0000ms, 0721ms total)
T458C 001:312 JLINK_WriteReg(R12, 0x00000000)  returns 0x00 (0001ms, 0722ms total)
T458C 001:313 JLINK_WriteReg(R13 (SP), 0x20001000)  returns 0x00 (0000ms, 0722ms total)
T458C 001:313 JLINK_WriteReg(R14, 0x20000001)  returns 0x00 (0000ms, 0722ms total)
T458C 001:313 JLINK_WriteReg(R15 (PC), 0x200000BC)  returns 0x00 (0000ms, 0722ms total)
T458C 001:313 JLINK_WriteReg(XPSR, 0x01000000)  returns 0x00 (0000ms, 0722ms total)
T458C 001:313 JLINK_WriteReg(MSP, 0x20001000)  returns 0x00 (0000ms, 0722ms total)
T458C 001:313 JLINK_WriteReg(PSP, 0x20001000)  returns 0x00 (0000ms, 0722ms total)
T458C 001:313 JLINK_WriteReg(CFBP, 0x00000000)  returns 0x00 (0001ms, 0723ms total)
T458C 001:314 JLINK_SetBPEx(Addr = 0x20000000, Type = 0xFFFFFFF2)  returns 0x00000003 (0000ms, 0723ms total)
T458C 001:314 JLINK_Go() -- CPU_ReadMem(4 bytes @ 0xE0001000) (0002ms, 0725ms total)
T458C 001:316 JLINK_IsHalted()  returns FALSE (0000ms, 0725ms total)
T458C 001:556 JLINK_IsHalted()  returns FALSE (0000ms, 0725ms total)
T458C 001:558 JLINK_IsHalted()  returns FALSE (0000ms, 0725ms total)
T458C 001:560 JLINK_IsHalted()  returns FALSE (0000ms, 0725ms total)
T458C 001:562 JLINK_IsHalted()  returns FALSE (0001ms, 0726ms total)
T458C 001:565 JLINK_IsHalted()  returns FALSE (0000ms, 0725ms total)
T458C 001:568 JLINK_IsHalted()  returns FALSE (0000ms, 0725ms total)
T458C 001:570 JLINK_IsHalted()  returns FALSE (0000ms, 0725ms total)
T458C 001:573 JLINK_IsHalted()  returns FALSE (0001ms, 0726ms total)
T458C 001:576 JLINK_IsHalted()  returns FALSE (0000ms, 0725ms total)
T458C 001:592 JLINK_IsHalted()  returns FALSE (0000ms, 0725ms total)
T458C 001:599 JLINK_IsHalted()  returns FALSE (0001ms, 0726ms total)
T458C 001:602 JLINK_IsHalted()  returns FALSE (0000ms, 0725ms total)
T458C 001:604 JLINK_IsHalted()  returns FALSE (0000ms, 0725ms total)
T458C 001:607 JLINK_IsHalted()  returns FALSE (0000ms, 0725ms total)
T458C 001:609 JLINK_IsHalted()  returns FALSE (0000ms, 0725ms total)
T458C 001:611 JLINK_IsHalted()  returns FALSE (0000ms, 0725ms total)
T458C 001:614 JLINK_IsHalted()  returns FALSE (0000ms, 0725ms total)
T458C 001:616 JLINK_IsHalted()  returns FALSE (0000ms, 0725ms total)
T458C 001:618 JLINK_IsHalted()  returns FALSE (0001ms, 0726ms total)
T458C 001:621 JLINK_IsHalted()  returns FALSE (0000ms, 0725ms total)
T458C 001:623 JLINK_IsHalted()  returns FALSE (0000ms, 0725ms total)
T458C 001:625 JLINK_IsHalted()  returns FALSE (0000ms, 0725ms total)
T458C 001:628 JLINK_IsHalted()  returns FALSE (0000ms, 0725ms total)
T458C 001:630 JLINK_IsHalted()  returns FALSE (0000ms, 0725ms total)
T458C 001:632 JLINK_IsHalted()  returns FALSE (0000ms, 0725ms total)
T458C 001:635 JLINK_IsHalted()  returns FALSE (0001ms, 0726ms total)
T458C 001:638 JLINK_IsHalted()  returns FALSE (0000ms, 0725ms total)
T458C 001:641 JLINK_IsHalted()  returns FALSE (0000ms, 0725ms total)
T458C 001:644 JLINK_IsHalted()  returns FALSE (0000ms, 0725ms total)
T458C 001:647 JLINK_IsHalted()  returns FALSE (0000ms, 0725ms total)
T458C 001:649 JLINK_IsHalted()  returns FALSE (0001ms, 0726ms total)
T458C 001:652 JLINK_IsHalted()  returns FALSE (0001ms, 0726ms total)
T458C 001:655 JLINK_IsHalted()  returns FALSE (0001ms, 0726ms total)
T458C 001:658 JLINK_IsHalted()  returns FALSE (0001ms, 0726ms total)
T458C 001:661 JLINK_IsHalted()  returns FALSE (0000ms, 0725ms total)
T458C 001:664 JLINK_IsHalted()  returns FALSE (0000ms, 0725ms total)
T458C 001:667 JLINK_IsHalted()  returns FALSE (0000ms, 0725ms total)
T458C 001:670 JLINK_IsHalted()  returns FALSE (0000ms, 0725ms total)
T458C 001:673 JLINK_IsHalted()  returns FALSE (0000ms, 0725ms total)
T458C 001:676 JLINK_IsHalted()  returns FALSE (0000ms, 0725ms total)
T458C 001:678 JLINK_IsHalted()  returns FALSE (0000ms, 0725ms total)
T458C 001:680 JLINK_IsHalted()  returns FALSE (0000ms, 0725ms total)
T458C 001:682 JLINK_IsHalted()  returns FALSE (0000ms, 0725ms total)
T458C 001:692 JLINK_IsHalted()  returns FALSE (0000ms, 0725ms total)
T458C 001:694 JLINK_IsHalted()  returns FALSE (0001ms, 0726ms total)
T458C 001:697 JLINK_IsHalted()  returns FALSE (0000ms, 0725ms total)
T458C 001:700 JLINK_IsHalted()  returns FALSE (0001ms, 0726ms total)
T458C 001:703 JLINK_IsHalted()  returns FALSE (0000ms, 0725ms total)
T458C 001:706 JLINK_IsHalted()  returns FALSE (0000ms, 0725ms total)
T458C 001:708 JLINK_IsHalted() -- CPU_ReadMem(2 bytes @ 0x20000000)  returns TRUE (0003ms, 0728ms total)
T458C 001:711 JLINK_ReadReg(R15 (PC))  returns 0x20000000 (0000ms, 0725ms total)
T458C 001:711 JLINK_ClrBPEx(BPHandle = 0x00000003)  returns 0x00 (0000ms, 0725ms total)
T458C 001:711 JLINK_ReadReg(R0)  returns 0x00000000 (0001ms, 0726ms total)
T458C 001:714 JLINK_WriteReg(R0, 0x00000001)  returns 0x00 (0000ms, 0726ms total)
T458C 001:714 JLINK_WriteReg(R1, 0x00004000)  returns 0x00 (0000ms, 0726ms total)
T458C 001:714 JLINK_WriteReg(R2, 0x000000FF)  returns 0x00 (0000ms, 0726ms total)
T458C 001:714 JLINK_WriteReg(R3, 0x00000000)  returns 0x00 (0000ms, 0726ms total)
T458C 001:714 JLINK_WriteReg(R4, 0x00000000)  returns 0x00 (0000ms, 0726ms total)
T458C 001:714 JLINK_WriteReg(R5, 0x00000000)  returns 0x00 (0000ms, 0726ms total)
T458C 001:715 JLINK_WriteReg(R6, 0x00000000)  returns 0x00 (0000ms, 0726ms total)
T458C 001:715 JLINK_WriteReg(R7, 0x00000000)  returns 0x00 (0000ms, 0726ms total)
T458C 001:715 JLINK_WriteReg(R8, 0x00000000)  returns 0x00 (0000ms, 0726ms total)
T458C 001:715 JLINK_WriteReg(R9, 0x2000017C)  returns 0x00 (0000ms, 0726ms total)
T458C 001:715 JLINK_WriteReg(R10, 0x00000000)  returns 0x00 (0000ms, 0726ms total)
T458C 001:715 JLINK_WriteReg(R11, 0x00000000)  returns 0x00 (0000ms, 0726ms total)
T458C 001:715 JLINK_WriteReg(R12, 0x00000000)  returns 0x00 (0001ms, 0727ms total)
T458C 001:716 JLINK_WriteReg(R13 (SP), 0x20001000)  returns 0x00 (0000ms, 0727ms total)
T458C 001:716 JLINK_WriteReg(R14, 0x20000001)  returns 0x00 (0000ms, 0727ms total)
T458C 001:716 JLINK_WriteReg(R15 (PC), 0x20000082)  returns 0x00 (0000ms, 0727ms total)
T458C 001:716 JLINK_WriteReg(XPSR, 0x01000000)  returns 0x00 (0000ms, 0727ms total)
T458C 001:716 JLINK_WriteReg(MSP, 0x20001000)  returns 0x00 (0000ms, 0727ms total)
T458C 001:717 JLINK_WriteReg(PSP, 0x20001000)  returns 0x00 (0000ms, 0728ms total)
T458C 001:717 JLINK_WriteReg(CFBP, 0x00000000)  returns 0x00 (0000ms, 0728ms total)
T458C 001:717 JLINK_SetBPEx(Addr = 0x20000000, Type = 0xFFFFFFF2)  returns 0x00000004 (0000ms, 0728ms total)
T458C 001:717 JLINK_Go() -- CPU_ReadMem(4 bytes @ 0xE0001000) (0003ms, 0731ms total)
T458C 001:720 JLINK_IsHalted() -- CPU_ReadMem(2 bytes @ 0x20000000)  returns TRUE (0003ms, 0734ms total)
T458C 001:723 JLINK_ReadReg(R15 (PC))  returns 0x20000000 (0000ms, 0731ms total)
T458C 001:723 JLINK_ClrBPEx(BPHandle = 0x00000004)  returns 0x00 (0000ms, 0731ms total)
T458C 001:723 JLINK_ReadReg(R0)  returns 0x00000000 (0000ms, 0731ms total)
T458C 001:804 JLINK_WriteMem(0x20000000, 0x0180 Bytes, ...) - Data: 00 BE 0A E0 0D 78 2D 06 68 40 08 24 40 00 00 D3 ... -- CPU_WriteMem(384 bytes @ 0x20000000)  returns 0x180 (0002ms, 0733ms total)
T458C 001:806 JLINK_WriteReg(R0, 0x08000000)  returns 0x00 (0000ms, 0733ms total)
T458C 001:806 JLINK_WriteReg(R1, 0x00B71B00)  returns 0x00 (0000ms, 0733ms total)
T458C 001:806 JLINK_WriteReg(R2, 0x00000002)  returns 0x00 (0000ms, 0733ms total)
T458C 001:806 JLINK_WriteReg(R3, 0x00000000)  returns 0x00 (0000ms, 0733ms total)
T458C 001:806 JLINK_WriteReg(R4, 0x00000000)  returns 0x00 (0001ms, 0734ms total)
T458C 001:807 JLINK_WriteReg(R5, 0x00000000)  returns 0x00 (0000ms, 0734ms total)
T458C 001:807 JLINK_WriteReg(R6, 0x00000000)  returns 0x00 (0000ms, 0734ms total)
T458C 001:807 JLINK_WriteReg(R7, 0x00000000)  returns 0x00 (0000ms, 0734ms total)
T458C 001:807 JLINK_WriteReg(R8, 0x00000000)  returns 0x00 (0000ms, 0734ms total)
T458C 001:807 JLINK_WriteReg(R9, 0x2000017C)  returns 0x00 (0000ms, 0734ms total)
T458C 001:807 JLINK_WriteReg(R10, 0x00000000)  returns 0x00 (0000ms, 0734ms total)
T458C 001:807 JLINK_WriteReg(R11, 0x00000000)  returns 0x00 (0000ms, 0734ms total)
T458C 001:808 JLINK_WriteReg(R12, 0x00000000)  returns 0x00 (0000ms, 0735ms total)
T458C 001:808 JLINK_WriteReg(R13 (SP), 0x20001000)  returns 0x00 (0000ms, 0735ms total)
T458C 001:808 JLINK_WriteReg(R14, 0x20000001)  returns 0x00 (0000ms, 0735ms total)
T458C 001:808 JLINK_WriteReg(R15 (PC), 0x20000054)  returns 0x00 (0000ms, 0735ms total)
T458C 001:808 JLINK_WriteReg(XPSR, 0x01000000)  returns 0x00 (0000ms, 0735ms total)
T458C 001:808 JLINK_WriteReg(MSP, 0x20001000)  returns 0x00 (0000ms, 0735ms total)
T458C 001:808 JLINK_WriteReg(PSP, 0x20001000)  returns 0x00 (0000ms, 0735ms total)
T458C 001:808 JLINK_WriteReg(CFBP, 0x00000000)  returns 0x00 (0001ms, 0736ms total)
T458C 001:809 JLINK_SetBPEx(Addr = 0x20000000, Type = 0xFFFFFFF2) -- CPU_ReadMem(4 bytes @ 0x20000000) -- CPU_WriteMem(4 bytes @ 0x20000000) -- CPU_ReadMem(4 bytes @ 0x20000000) -- CPU_WriteMem(4 bytes @ 0x20000000) -- CPU_ReadMem(2 bytes @ 0x20000000)  returns 0x00000005 (0002ms, 0738ms total)
T458C 001:811 JLINK_Go() -- CPU_WriteMem(2 bytes @ 0x20000000) -- CPU_ReadMem(4 bytes @ 0xE0001000) (0003ms, 0741ms total)
T458C 001:814 JLINK_IsHalted() -- CPU_ReadMem(2 bytes @ 0x20000000)  returns TRUE (0003ms, 0744ms total)
T458C 001:817 JLINK_ReadReg(R15 (PC))  returns 0x20000000 (0000ms, 0741ms total)
T458C 001:817 JLINK_ClrBPEx(BPHandle = 0x00000005)  returns 0x00 (0000ms, 0741ms total)
T458C 001:818 JLINK_ReadReg(R0)  returns 0x00000000 (0000ms, 0742ms total)
T458C 001:819 JLINK_WriteMem(0x20000180, 0x0280 Bytes, ...) - Data: B8 06 00 20 29 02 00 08 3F 07 00 08 37 07 00 08 ... -- CPU_WriteMem(640 bytes @ 0x20000180)  returns 0x280 (0003ms, 0745ms total)
T458C 001:822 JLINK_WriteMem(0x20000400, 0x0180 Bytes, ...) - Data: 85 46 18 B0 20 B5 FF F7 DD FF BD E8 20 40 4F F0 ... -- CPU_WriteMem(384 bytes @ 0x20000400)  returns 0x180 (0002ms, 0747ms total)
T458C 001:824 JLINK_WriteReg(R0, 0x08000000)  returns 0x00 (0000ms, 0747ms total)
T458C 001:824 JLINK_WriteReg(R1, 0x00000400)  returns 0x00 (0000ms, 0747ms total)
T458C 001:824 JLINK_WriteReg(R2, 0x20000180)  returns 0x00 (0000ms, 0747ms total)
T458C 001:824 JLINK_WriteReg(R3, 0x00000000)  returns 0x00 (0000ms, 0747ms total)
T458C 001:824 JLINK_WriteReg(R4, 0x00000000)  returns 0x00 (0000ms, 0747ms total)
T458C 001:825 JLINK_WriteReg(R5, 0x00000000)  returns 0x00 (0000ms, 0747ms total)
T458C 001:825 JLINK_WriteReg(R6, 0x00000000)  returns 0x00 (0000ms, 0747ms total)
T458C 001:825 JLINK_WriteReg(R7, 0x00000000)  returns 0x00 (0000ms, 0747ms total)
T458C 001:825 JLINK_WriteReg(R8, 0x00000000)  returns 0x00 (0000ms, 0747ms total)
T458C 001:825 JLINK_WriteReg(R9, 0x2000017C)  returns 0x00 (0000ms, 0747ms total)
T458C 001:825 JLINK_WriteReg(R10, 0x00000000)  returns 0x00 (0000ms, 0747ms total)
T458C 001:825 JLINK_WriteReg(R11, 0x00000000)  returns 0x00 (0000ms, 0747ms total)
T458C 001:825 JLINK_WriteReg(R12, 0x00000000)  returns 0x00 (0001ms, 0748ms total)
T458C 001:826 JLINK_WriteReg(R13 (SP), 0x20001000)  returns 0x00 (0000ms, 0748ms total)
T458C 001:826 JLINK_WriteReg(R14, 0x20000001)  returns 0x00 (0000ms, 0748ms total)
T458C 001:826 JLINK_WriteReg(R15 (PC), 0x20000108)  returns 0x00 (0000ms, 0748ms total)
T458C 001:826 JLINK_WriteReg(XPSR, 0x01000000)  returns 0x00 (0000ms, 0748ms total)
T458C 001:826 JLINK_WriteReg(MSP, 0x20001000)  returns 0x00 (0000ms, 0748ms total)
T458C 001:826 JLINK_WriteReg(PSP, 0x20001000)  returns 0x00 (0000ms, 0748ms total)
T458C 001:826 JLINK_WriteReg(CFBP, 0x00000000)  returns 0x00 (0001ms, 0749ms total)
T458C 001:827 JLINK_SetBPEx(Addr = 0x20000000, Type = 0xFFFFFFF2)  returns 0x00000006 (0000ms, 0749ms total)
T458C 001:827 JLINK_Go() -- CPU_ReadMem(4 bytes @ 0xE0001000) (0002ms, 0751ms total)
T458C 001:829 JLINK_IsHalted()  returns FALSE (0001ms, 0752ms total)
T458C 001:847 JLINK_IsHalted() -- CPU_ReadMem(2 bytes @ 0x20000000)  returns TRUE (0003ms, 0754ms total)
T458C 001:850 JLINK_ReadReg(R15 (PC))  returns 0x20000000 (0000ms, 0751ms total)
T458C 001:850 JLINK_ClrBPEx(BPHandle = 0x00000006)  returns 0x00 (0000ms, 0751ms total)
T458C 001:850 JLINK_ReadReg(R0)  returns 0x00000000 (0000ms, 0751ms total)
T458C 001:852 JLINK_WriteMem(0x20000180, 0x0280 Bytes, ...) - Data: 00 22 82 61 04 22 42 60 05 E0 00 22 82 61 04 22 ... -- CPU_WriteMem(640 bytes @ 0x20000180)  returns 0x280 (0003ms, 0754ms total)
T458C 001:855 JLINK_WriteMem(0x20000400, 0x0180 Bytes, ...) - Data: 02 D0 15 79 02 2D 16 D1 85 68 4F 00 03 26 BE 40 ... -- CPU_WriteMem(384 bytes @ 0x20000400)  returns 0x180 (0002ms, 0756ms total)
T458C 001:857 JLINK_WriteReg(R0, 0x08000400)  returns 0x00 (0000ms, 0756ms total)
T458C 001:857 JLINK_WriteReg(R1, 0x00000400)  returns 0x00 (0001ms, 0757ms total)
T458C 001:858 JLINK_WriteReg(R2, 0x20000180)  returns 0x00 (0000ms, 0757ms total)
T458C 001:858 JLINK_WriteReg(R3, 0x00000000)  returns 0x00 (0000ms, 0757ms total)
T458C 001:858 JLINK_WriteReg(R4, 0x00000000)  returns 0x00 (0000ms, 0757ms total)
T458C 001:858 JLINK_WriteReg(R5, 0x00000000)  returns 0x00 (0000ms, 0757ms total)
T458C 001:858 JLINK_WriteReg(R6, 0x00000000)  returns 0x00 (0000ms, 0757ms total)
T458C 001:858 JLINK_WriteReg(R7, 0x00000000)  returns 0x00 (0001ms, 0758ms total)
T458C 001:859 JLINK_WriteReg(R8, 0x00000000)  returns 0x00 (0000ms, 0758ms total)
T458C 001:859 JLINK_WriteReg(R9, 0x2000017C)  returns 0x00 (0000ms, 0758ms total)
T458C 001:859 JLINK_WriteReg(R10, 0x00000000)  returns 0x00 (0000ms, 0758ms total)
T458C 001:859 JLINK_WriteReg(R11, 0x00000000)  returns 0x00 (0000ms, 0758ms total)
T458C 001:859 JLINK_WriteReg(R12, 0x00000000)  returns 0x00 (0000ms, 0758ms total)
T458C 001:859 JLINK_WriteReg(R13 (SP), 0x20001000)  returns 0x00 (0001ms, 0759ms total)
T458C 001:860 JLINK_WriteReg(R14, 0x20000001)  returns 0x00 (0000ms, 0759ms total)
T458C 001:860 JLINK_WriteReg(R15 (PC), 0x20000108)  returns 0x00 (0000ms, 0759ms total)
T458C 001:860 JLINK_WriteReg(XPSR, 0x01000000)  returns 0x00 (0000ms, 0759ms total)
T458C 001:860 JLINK_WriteReg(MSP, 0x20001000)  returns 0x00 (0000ms, 0759ms total)
T458C 001:860 JLINK_WriteReg(PSP, 0x20001000)  returns 0x00 (0000ms, 0759ms total)
T458C 001:860 JLINK_WriteReg(CFBP, 0x00000000)  returns 0x00 (0000ms, 0759ms total)
T458C 001:860 JLINK_SetBPEx(Addr = 0x20000000, Type = 0xFFFFFFF2)  returns 0x00000007 (0001ms, 0760ms total)
T458C 001:861 JLINK_Go() -- CPU_ReadMem(4 bytes @ 0xE0001000) (0002ms, 0762ms total)
T458C 001:863 JLINK_IsHalted()  returns FALSE (0000ms, 0762ms total)
T458C 001:865 JLINK_IsHalted()  returns FALSE (0001ms, 0763ms total)
T458C 001:868 JLINK_IsHalted() -- CPU_ReadMem(2 bytes @ 0x20000000)  returns TRUE (0003ms, 0765ms total)
T458C 001:871 JLINK_ReadReg(R15 (PC))  returns 0x20000000 (0000ms, 0762ms total)
T458C 001:871 JLINK_ClrBPEx(BPHandle = 0x00000007)  returns 0x00 (0000ms, 0762ms total)
T458C 001:871 JLINK_ReadReg(R0)  returns 0x00000000 (0000ms, 0762ms total)
T458C 001:873 JLINK_WriteMem(0x20000180, 0x0280 Bytes, ...) - Data: 40 F4 80 30 32 49 08 60 00 BF 31 48 00 68 00 F4 ... -- CPU_WriteMem(640 bytes @ 0x20000180)  returns 0x280 (0004ms, 0766ms total)
T458C 001:877 JLINK_WriteMem(0x20000400, 0x0180 Bytes, ...) - Data: CA 43 02 82 70 47 21 B1 02 88 42 F0 01 02 02 80 ... -- CPU_WriteMem(384 bytes @ 0x20000400)  returns 0x180 (0002ms, 0768ms total)
T458C 001:879 JLINK_WriteReg(R0, 0x08000800)  returns 0x00 (0000ms, 0768ms total)
T458C 001:879 JLINK_WriteReg(R1, 0x00000400)  returns 0x00 (0000ms, 0768ms total)
T458C 001:879 JLINK_WriteReg(R2, 0x20000180)  returns 0x00 (0000ms, 0768ms total)
T458C 001:880 JLINK_WriteReg(R3, 0x00000000)  returns 0x00 (0000ms, 0769ms total)
T458C 001:880 JLINK_WriteReg(R4, 0x00000000)  returns 0x00 (0000ms, 0769ms total)
T458C 001:880 JLINK_WriteReg(R5, 0x00000000)  returns 0x00 (0000ms, 0769ms total)
T458C 001:880 JLINK_WriteReg(R6, 0x00000000)  returns 0x00 (0000ms, 0769ms total)
T458C 001:880 JLINK_WriteReg(R7, 0x00000000)  returns 0x00 (0000ms, 0769ms total)
T458C 001:880 JLINK_WriteReg(R8, 0x00000000)  returns 0x00 (0000ms, 0769ms total)
T458C 001:880 JLINK_WriteReg(R9, 0x2000017C)  returns 0x00 (0001ms, 0770ms total)
T458C 001:881 JLINK_WriteReg(R10, 0x00000000)  returns 0x00 (0000ms, 0770ms total)
T458C 001:881 JLINK_WriteReg(R11, 0x00000000)  returns 0x00 (0000ms, 0770ms total)
T458C 001:881 JLINK_WriteReg(R12, 0x00000000)  returns 0x00 (0000ms, 0770ms total)
T458C 001:881 JLINK_WriteReg(R13 (SP), 0x20001000)  returns 0x00 (0000ms, 0770ms total)
T458C 001:881 JLINK_WriteReg(R14, 0x20000001)  returns 0x00 (0000ms, 0770ms total)
T458C 001:881 JLINK_WriteReg(R15 (PC), 0x20000108)  returns 0x00 (0000ms, 0770ms total)
T458C 001:881 JLINK_WriteReg(XPSR, 0x01000000)  returns 0x00 (0001ms, 0771ms total)
T458C 001:882 JLINK_WriteReg(MSP, 0x20001000)  returns 0x00 (0000ms, 0771ms total)
T458C 001:882 JLINK_WriteReg(PSP, 0x20001000)  returns 0x00 (0000ms, 0771ms total)
T458C 001:882 JLINK_WriteReg(CFBP, 0x00000000)  returns 0x00 (0000ms, 0771ms total)
T458C 001:882 JLINK_SetBPEx(Addr = 0x20000000, Type = 0xFFFFFFF2)  returns 0x00000008 (0000ms, 0771ms total)
T458C 001:882 JLINK_Go() -- CPU_ReadMem(4 bytes @ 0xE0001000) (0003ms, 0774ms total)
T458C 001:885 JLINK_IsHalted()  returns FALSE (0000ms, 0774ms total)
T458C 001:887 JLINK_IsHalted()  returns FALSE (0000ms, 0774ms total)
T458C 001:889 JLINK_IsHalted() -- CPU_ReadMem(2 bytes @ 0x20000000)  returns TRUE (0003ms, 0777ms total)
T458C 001:892 JLINK_ReadReg(R15 (PC))  returns 0x20000000 (0000ms, 0774ms total)
T458C 001:892 JLINK_ClrBPEx(BPHandle = 0x00000008)  returns 0x00 (0000ms, 0774ms total)
T458C 001:892 JLINK_ReadReg(R0)  returns 0x00000000 (0000ms, 0774ms total)
T458C 001:895 JLINK_WriteMem(0x20000180, 0x0280 Bytes, ...) - Data: 40 F2 25 51 19 48 00 F0 55 F8 68 B3 40 F2 25 51 ... -- CPU_WriteMem(640 bytes @ 0x20000180)  returns 0x280 (0003ms, 0777ms total)
T458C 001:898 JLINK_WriteMem(0x20000400, 0x0180 Bytes, ...) - Data: FF FF FF FF FF FF FF FF FF FF FF FF FF FF FF FF ... -- CPU_WriteMem(384 bytes @ 0x20000400)  returns 0x180 (0003ms, 0780ms total)
T458C 001:901 JLINK_WriteReg(R0, 0x08000C00)  returns 0x00 (0000ms, 0780ms total)
T458C 001:901 JLINK_WriteReg(R1, 0x000001B8)  returns 0x00 (0000ms, 0780ms total)
T458C 001:901 JLINK_WriteReg(R2, 0x20000180)  returns 0x00 (0000ms, 0780ms total)
T458C 001:901 JLINK_WriteReg(R3, 0x00000000)  returns 0x00 (0000ms, 0780ms total)
T458C 001:901 JLINK_WriteReg(R4, 0x00000000)  returns 0x00 (0000ms, 0780ms total)
T458C 001:901 JLINK_WriteReg(R5, 0x00000000)  returns 0x00 (0001ms, 0781ms total)
T458C 001:902 JLINK_WriteReg(R6, 0x00000000)  returns 0x00 (0000ms, 0781ms total)
T458C 001:902 JLINK_WriteReg(R7, 0x00000000)  returns 0x00 (0000ms, 0781ms total)
T458C 001:902 JLINK_WriteReg(R8, 0x00000000)  returns 0x00 (0000ms, 0781ms total)
T458C 001:902 JLINK_WriteReg(R9, 0x2000017C)  returns 0x00 (0000ms, 0781ms total)
T458C 001:902 JLINK_WriteReg(R10, 0x00000000)  returns 0x00 (0000ms, 0781ms total)
T458C 001:902 JLINK_WriteReg(R11, 0x00000000)  returns 0x00 (0000ms, 0781ms total)
T458C 001:902 JLINK_WriteReg(R12, 0x00000000)  returns 0x00 (0000ms, 0781ms total)
T458C 001:902 JLINK_WriteReg(R13 (SP), 0x20001000)  returns 0x00 (0001ms, 0782ms total)
T458C 001:903 JLINK_WriteReg(R14, 0x20000001)  returns 0x00 (0000ms, 0782ms total)
T458C 001:903 JLINK_WriteReg(R15 (PC), 0x20000108)  returns 0x00 (0000ms, 0782ms total)
T458C 001:903 JLINK_WriteReg(XPSR, 0x01000000)  returns 0x00 (0000ms, 0782ms total)
T458C 001:903 JLINK_WriteReg(MSP, 0x20001000)  returns 0x00 (0000ms, 0782ms total)
T458C 001:903 JLINK_WriteReg(PSP, 0x20001000)  returns 0x00 (0000ms, 0782ms total)
T458C 001:903 JLINK_WriteReg(CFBP, 0x00000000)  returns 0x00 (0000ms, 0782ms total)
T458C 001:903 JLINK_SetBPEx(Addr = 0x20000000, Type = 0xFFFFFFF2)  returns 0x00000009 (0001ms, 0783ms total)
T458C 001:904 JLINK_Go() -- CPU_ReadMem(4 bytes @ 0xE0001000) (0002ms, 0785ms total)
T458C 001:906 JLINK_IsHalted()  returns FALSE (0000ms, 0785ms total)
T458C 001:912 JLINK_IsHalted() -- CPU_ReadMem(2 bytes @ 0x20000000)  returns TRUE (0003ms, 0788ms total)
T458C 001:915 JLINK_ReadReg(R15 (PC))  returns 0x20000000 (0000ms, 0785ms total)
T458C 001:915 JLINK_ClrBPEx(BPHandle = 0x00000009)  returns 0x00 (0000ms, 0785ms total)
T458C 001:915 JLINK_ReadReg(R0)  returns 0x00000000 (0000ms, 0785ms total)
T458C 001:915 JLINK_WriteReg(R0, 0x00000002)  returns 0x00 (0000ms, 0785ms total)
T458C 001:915 JLINK_WriteReg(R1, 0x000001B8)  returns 0x00 (0000ms, 0785ms total)
T458C 001:915 JLINK_WriteReg(R2, 0x20000180)  returns 0x00 (0000ms, 0785ms total)
T458C 001:916 JLINK_WriteReg(R3, 0x00000000)  returns 0x00 (0000ms, 0785ms total)
T458C 001:916 JLINK_WriteReg(R4, 0x00000000)  returns 0x00 (0000ms, 0785ms total)
T458C 001:916 JLINK_WriteReg(R5, 0x00000000)  returns 0x00 (0000ms, 0785ms total)
T458C 001:916 JLINK_WriteReg(R6, 0x00000000)  returns 0x00 (0000ms, 0785ms total)
T458C 001:916 JLINK_WriteReg(R7, 0x00000000)  returns 0x00 (0000ms, 0785ms total)
T458C 001:916 JLINK_WriteReg(R8, 0x00000000)  returns 0x00 (0000ms, 0785ms total)
T458C 001:916 JLINK_WriteReg(R9, 0x2000017C)  returns 0x00 (0000ms, 0785ms total)
T458C 001:916 JLINK_WriteReg(R10, 0x00000000)  returns 0x00 (0001ms, 0786ms total)
T458C 001:917 JLINK_WriteReg(R11, 0x00000000)  returns 0x00 (0000ms, 0786ms total)
T458C 001:917 JLINK_WriteReg(R12, 0x00000000)  returns 0x00 (0000ms, 0786ms total)
T458C 001:917 JLINK_WriteReg(R13 (SP), 0x20001000)  returns 0x00 (0000ms, 0786ms total)
T458C 001:917 JLINK_WriteReg(R14, 0x20000001)  returns 0x00 (0000ms, 0786ms total)
T458C 001:917 JLINK_WriteReg(R15 (PC), 0x20000082)  returns 0x00 (0000ms, 0786ms total)
T458C 001:917 JLINK_WriteReg(XPSR, 0x01000000)  returns 0x00 (0000ms, 0786ms total)
T458C 001:917 JLINK_WriteReg(MSP, 0x20001000)  returns 0x00 (0001ms, 0787ms total)
T458C 001:918 JLINK_WriteReg(PSP, 0x20001000)  returns 0x00 (0000ms, 0787ms total)
T458C 001:918 JLINK_WriteReg(CFBP, 0x00000000)  returns 0x00 (0000ms, 0787ms total)
T458C 001:918 JLINK_SetBPEx(Addr = 0x20000000, Type = 0xFFFFFFF2)  returns 0x0000000A (0000ms, 0787ms total)
T458C 001:918 JLINK_Go() -- CPU_ReadMem(4 bytes @ 0xE0001000) (0002ms, 0789ms total)
T458C 001:920 JLINK_IsHalted() -- CPU_ReadMem(2 bytes @ 0x20000000)  returns TRUE (0003ms, 0792ms total)
T458C 001:923 JLINK_ReadReg(R15 (PC))  returns 0x20000000 (0001ms, 0790ms total)
T458C 001:924 JLINK_ClrBPEx(BPHandle = 0x0000000A)  returns 0x00 (0000ms, 0790ms total)
T458C 001:924 JLINK_ReadReg(R0)  returns 0x00000000 (0000ms, 0790ms total)
T458C 002:003 JLINK_WriteMem(0x20000000, 0x0180 Bytes, ...) - Data: 00 BE 0A E0 0D 78 2D 06 68 40 08 24 40 00 00 D3 ... -- CPU_WriteMem(384 bytes @ 0x20000000)  returns 0x180 (0002ms, 0792ms total)
T458C 002:005 JLINK_WriteReg(R0, 0x08000000)  returns 0x00 (0001ms, 0793ms total)
T458C 002:006 JLINK_WriteReg(R1, 0x00B71B00)  returns 0x00 (0000ms, 0793ms total)
T458C 002:006 JLINK_WriteReg(R2, 0x00000003)  returns 0x00 (0000ms, 0793ms total)
T458C 002:006 JLINK_WriteReg(R3, 0x00000000)  returns 0x00 (0000ms, 0793ms total)
T458C 002:006 JLINK_WriteReg(R4, 0x00000000)  returns 0x00 (0000ms, 0793ms total)
T458C 002:006 JLINK_WriteReg(R5, 0x00000000)  returns 0x00 (0000ms, 0793ms total)
T458C 002:006 JLINK_WriteReg(R6, 0x00000000)  returns 0x00 (0000ms, 0793ms total)
T458C 002:006 JLINK_WriteReg(R7, 0x00000000)  returns 0x00 (0000ms, 0793ms total)
T458C 002:006 JLINK_WriteReg(R8, 0x00000000)  returns 0x00 (0001ms, 0794ms total)
T458C 002:007 JLINK_WriteReg(R9, 0x2000017C)  returns 0x00 (0000ms, 0794ms total)
T458C 002:007 JLINK_WriteReg(R10, 0x00000000)  returns 0x00 (0000ms, 0794ms total)
T458C 002:007 JLINK_WriteReg(R11, 0x00000000)  returns 0x00 (0000ms, 0794ms total)
T458C 002:007 JLINK_WriteReg(R12, 0x00000000)  returns 0x00 (0000ms, 0794ms total)
T458C 002:007 JLINK_WriteReg(R13 (SP), 0x20001000)  returns 0x00 (0000ms, 0794ms total)
T458C 002:007 JLINK_WriteReg(R14, 0x20000001)  returns 0x00 (0000ms, 0794ms total)
T458C 002:007 JLINK_WriteReg(R15 (PC), 0x20000054)  returns 0x00 (0000ms, 0794ms total)
T458C 002:008 JLINK_WriteReg(XPSR, 0x01000000)  returns 0x00 (0000ms, 0795ms total)
T458C 002:008 JLINK_WriteReg(MSP, 0x20001000)  returns 0x00 (0000ms, 0795ms total)
T458C 002:008 JLINK_WriteReg(PSP, 0x20001000)  returns 0x00 (0000ms, 0795ms total)
T458C 002:008 JLINK_WriteReg(CFBP, 0x00000000)  returns 0x00 (0000ms, 0795ms total)
T458C 002:008 JLINK_SetBPEx(Addr = 0x20000000, Type = 0xFFFFFFF2) -- CPU_ReadMem(4 bytes @ 0x20000000) -- CPU_WriteMem(4 bytes @ 0x20000000) -- CPU_ReadMem(4 bytes @ 0x20000000) -- CPU_WriteMem(4 bytes @ 0x20000000) -- CPU_ReadMem(2 bytes @ 0x20000000)  returns 0x0000000B (0002ms, 0797ms total)
T458C 002:010 JLINK_Go() -- CPU_WriteMem(2 bytes @ 0x20000000) -- CPU_ReadMem(4 bytes @ 0xE0001000) (0003ms, 0800ms total)
T458C 002:013 JLINK_IsHalted() -- CPU_ReadMem(2 bytes @ 0x20000000)  returns TRUE (0003ms, 0803ms total)
T458C 002:016 JLINK_ReadReg(R15 (PC))  returns 0x20000000 (0000ms, 0800ms total)
T458C 002:016 JLINK_ClrBPEx(BPHandle = 0x0000000B)  returns 0x00 (0000ms, 0800ms total)
T458C 002:016 JLINK_ReadReg(R0)  returns 0x00000000 (0000ms, 0800ms total)
T458C 002:016 JLINK_WriteReg(R0, 0xFFFFFFFF)  returns 0x00 (0001ms, 0801ms total)
T458C 002:017 JLINK_WriteReg(R1, 0x08000000)  returns 0x00 (0000ms, 0801ms total)
T458C 002:017 JLINK_WriteReg(R2, 0x00000DB8)  returns 0x00 (0000ms, 0801ms total)
T458C 002:017 JLINK_WriteReg(R3, 0x04C11DB7)  returns 0x00 (0000ms, 0801ms total)
T458C 002:017 JLINK_WriteReg(R4, 0x00000000)  returns 0x00 (0000ms, 0801ms total)
T458C 002:017 JLINK_WriteReg(R5, 0x00000000)  returns 0x00 (0000ms, 0801ms total)
T458C 002:017 JLINK_WriteReg(R6, 0x00000000)  returns 0x00 (0000ms, 0801ms total)
T458C 002:017 JLINK_WriteReg(R7, 0x00000000)  returns 0x00 (0001ms, 0802ms total)
T458C 002:018 JLINK_WriteReg(R8, 0x00000000)  returns 0x00 (0000ms, 0802ms total)
T458C 002:018 JLINK_WriteReg(R9, 0x2000017C)  returns 0x00 (0000ms, 0802ms total)
T458C 002:018 JLINK_WriteReg(R10, 0x00000000)  returns 0x00 (0000ms, 0802ms total)
T458C 002:018 JLINK_WriteReg(R11, 0x00000000)  returns 0x00 (0000ms, 0802ms total)
T458C 002:018 JLINK_WriteReg(R12, 0x00000000)  returns 0x00 (0000ms, 0802ms total)
T458C 002:018 JLINK_WriteReg(R13 (SP), 0x20001000)  returns 0x00 (0000ms, 0802ms total)
T458C 002:018 JLINK_WriteReg(R14, 0x20000001)  returns 0x00 (0001ms, 0803ms total)
T458C 002:019 JLINK_WriteReg(R15 (PC), 0x20000002)  returns 0x00 (0000ms, 0803ms total)
T458C 002:019 JLINK_WriteReg(XPSR, 0x01000000)  returns 0x00 (0000ms, 0803ms total)
T458C 002:019 JLINK_WriteReg(MSP, 0x20001000)  returns 0x00 (0000ms, 0803ms total)
T458C 002:019 JLINK_WriteReg(PSP, 0x20001000)  returns 0x00 (0000ms, 0803ms total)
T458C 002:019 JLINK_WriteReg(CFBP, 0x00000000)  returns 0x00 (0000ms, 0803ms total)
T458C 002:019 JLINK_SetBPEx(Addr = 0x20000000, Type = 0xFFFFFFF2)  returns 0x0000000C (0001ms, 0804ms total)
T458C 002:020 JLINK_Go() -- CPU_ReadMem(4 bytes @ 0xE0001000) (0002ms, 0806ms total)
T458C 002:022 JLINK_IsHalted()  returns FALSE (0001ms, 0807ms total)
T458C 002:033 JLINK_IsHalted()  returns FALSE (0000ms, 0806ms total)
T458C 002:036 JLINK_IsHalted()  returns FALSE (0001ms, 0807ms total)
T458C 002:039 JLINK_IsHalted()  returns FALSE (0000ms, 0806ms total)
T458C 002:041 JLINK_IsHalted()  returns FALSE (0000ms, 0806ms total)
T458C 002:043 JLINK_IsHalted()  returns FALSE (0000ms, 0806ms total)
T458C 002:045 JLINK_IsHalted() -- CPU_ReadMem(2 bytes @ 0x20000000)  returns TRUE (0003ms, 0809ms total)
T458C 002:048 JLINK_ReadReg(R15 (PC))  returns 0x20000000 (0000ms, 0806ms total)
T458C 002:048 JLINK_ClrBPEx(BPHandle = 0x0000000C)  returns 0x00 (0000ms, 0806ms total)
T458C 002:049 JLINK_ReadReg(R0)  returns 0x49D790AC (0000ms, 0807ms total)
T458C 002:052 JLINK_WriteReg(R0, 0x00000003)  returns 0x00 (0000ms, 0807ms total)
T458C 002:052 JLINK_WriteReg(R1, 0x08000000)  returns 0x00 (0000ms, 0807ms total)
T458C 002:052 JLINK_WriteReg(R2, 0x00000DB8)  returns 0x00 (0000ms, 0807ms total)
T458C 002:052 JLINK_WriteReg(R3, 0x04C11DB7)  returns 0x00 (0000ms, 0807ms total)
T458C 002:052 JLINK_WriteReg(R4, 0x00000000)  returns 0x00 (0000ms, 0807ms total)
T458C 002:052 JLINK_WriteReg(R5, 0x00000000)  returns 0x00 (0001ms, 0808ms total)
T458C 002:053 JLINK_WriteReg(R6, 0x00000000)  returns 0x00 (0000ms, 0808ms total)
T458C 002:053 JLINK_WriteReg(R7, 0x00000000)  returns 0x00 (0000ms, 0808ms total)
T458C 002:053 JLINK_WriteReg(R8, 0x00000000)  returns 0x00 (0000ms, 0808ms total)
T458C 002:053 JLINK_WriteReg(R9, 0x2000017C)  returns 0x00 (0000ms, 0808ms total)
T458C 002:053 JLINK_WriteReg(R10, 0x00000000)  returns 0x00 (0000ms, 0808ms total)
T458C 002:053 JLINK_WriteReg(R11, 0x00000000)  returns 0x00 (0000ms, 0808ms total)
T458C 002:053 JLINK_WriteReg(R12, 0x00000000)  returns 0x00 (0001ms, 0809ms total)
T458C 002:054 JLINK_WriteReg(R13 (SP), 0x20001000)  returns 0x00 (0000ms, 0809ms total)
T458C 002:054 JLINK_WriteReg(R14, 0x20000001)  returns 0x00 (0000ms, 0809ms total)
T458C 002:054 JLINK_WriteReg(R15 (PC), 0x20000082)  returns 0x00 (0000ms, 0809ms total)
T458C 002:054 JLINK_WriteReg(XPSR, 0x01000000)  returns 0x00 (0000ms, 0809ms total)
T458C 002:054 JLINK_WriteReg(MSP, 0x20001000)  returns 0x00 (0000ms, 0809ms total)
T458C 002:054 JLINK_WriteReg(PSP, 0x20001000)  returns 0x00 (0000ms, 0809ms total)
T458C 002:054 JLINK_WriteReg(CFBP, 0x00000000)  returns 0x00 (0001ms, 0810ms total)
T458C 002:055 JLINK_SetBPEx(Addr = 0x20000000, Type = 0xFFFFFFF2)  returns 0x0000000D (0000ms, 0810ms total)
T458C 002:055 JLINK_Go() -- CPU_ReadMem(4 bytes @ 0xE0001000) (0002ms, 0812ms total)
T458C 002:057 JLINK_IsHalted() -- CPU_ReadMem(2 bytes @ 0x20000000)  returns TRUE (0003ms, 0815ms total)
T458C 002:060 JLINK_ReadReg(R15 (PC))  returns 0x20000000 (0000ms, 0812ms total)
T458C 002:060 JLINK_ClrBPEx(BPHandle = 0x0000000D)  returns 0x00 (0000ms, 0812ms total)
T458C 002:060 JLINK_ReadReg(R0)  returns 0x00000000 (0000ms, 0812ms total)
T458C 002:135 JLINK_WriteMemEx(0x20000000, 0x0002 Bytes, ..., AccessWidth = 33554432) - Data: FE E7Mis-aligned memory write: Address: 0x20000000, NumBytes: 2, Alignment: 2 (Halfword-aligned)
  ***** Mis-aligned memory write: Address: 0x20000000, NumBytes: 2, Alignment: 2 (Halfword-aligned) -- CPU_WriteMem(2 bytes @ 0x20000000)  returns 0x02 (0013ms, 0825ms total)
T458C 002:148 JLINK_SetResetType(JLINKARM_RESET_TYPE_NORMAL)  returns JLINKARM_RESET_TYPE_NORMAL (0000ms, 0825ms total)
T458C 002:148 JLINK_Reset() -- CPU_WriteMem(4 bytes @ 0xE000EDF0) -- CPU_WriteMem(4 bytes @ 0xE000EDFC) >0x35 TIF> -- CPU_WriteMem(4 bytes @ 0xE000ED0C) -- CPU_ReadMem(4 bytes @ 0xE000EDF0) -- CPU_ReadMem(4 bytes @ 0xE000EDF0) -- CPU_WriteMem(4 bytes @ 0xE000EDF0) -- CPU_WriteMem(4 bytes @ 0xE000EDFC) -- CPU is running -- CPU_ReadMem(4 bytes @ 0xE000EDF0) -- CPU_WriteMem(4 bytes @ 0xE0002000) -- CPU_ReadMem(4 bytes @ 0xE000EDFC) -- CPU_ReadMem(4 bytes @ 0xE0001000) (0019ms, 0844ms total)
T458C 002:167 JLINK_Go() -- CPU_ReadMem(4 bytes @ 0xE0001000) -- CPU_WriteMem(4 bytes @ 0xE0002008) -- CPU_WriteMem(4 bytes @ 0xE000200C) -- CPU_WriteMem(4 bytes @ 0xE0002010) -- CPU_WriteMem(4 bytes @ 0xE0002014) -- CPU_WriteMem(4 bytes @ 0xE0002018) -- CPU_WriteMem(4 bytes @ 0xE000201C) -- CPU_WriteMem(4 bytes @ 0xE0001004) (0003ms, 0847ms total)
T458C 002:214 JLINK_Close() -- CPU is running -- CPU_WriteMem(4 bytes @ 0xE0002008) -- CPU is running -- CPU_WriteMem(4 bytes @ 0xE000200C) -- CPU is running -- CPU_WriteMem(4 bytes @ 0xE0002010) -- CPU is running -- CPU_WriteMem(4 bytes @ 0xE0002014) -- CPU is running -- CPU_WriteMem(4 bytes @ 0xE0002018) -- CPU is running -- CPU_WriteMem(4 bytes @ 0xE000201C) >0x42 TIF> >0x28 TIF> >0x0D TIF> >0x21 TIF> (0007ms, 0854ms total)
T458C 002:214  (0007ms, 0854ms total)
T458C 002:214 Closed (0007ms, 0854ms total)
